!Keysight Technologies,E5080A,MY55200740,A.12.60.03
!Date: Wednesday, July 22, 2020 12:05:52
!Correction: S11(Full 4 Port(1,2,3,4)) 
!S12(Full 4 Port(1,2,3,4)) 
!S13(Full 4 Port(1,2,3,4)) 
!S14(Full 4 Port(1,2,3,4)) 
!S21(Full 4 Port(1,2,3,4)) 
!S22(Full 4 Port(1,2,3,4)) 
!S23(Full 4 Port(1,2,3,4)) 
!S24(Full 4 Port(1,2,3,4)) 
!S31(Full 4 Port(1,2,3,4)) 
!S32(Full 4 Port(1,2,3,4)) 
!S33(Full 4 Port(1,2,3,4)) 
!S34(Full 4 Port(1,2,3,4)) 
!S41(Full 4 Port(1,2,3,4)) 
!S42(Full 4 Port(1,2,3,4)) 
!S43(Full 4 Port(1,2,3,4)) 
!S44(Full 4 Port(1,2,3,4)) 
!S4P File: Measurements: <S11,S12,S13,S14>,
!<S21,S22,S23,S24>,
!<S31,S32,S33,S34>,
!<S41,S42,S43,S44>:Log Frequency Sweep
# Hz S  dB   R 50
100000 -32.94146 5.6262426 -91.174751 66.987785 -104.66926 46.078289 -0.19833693 -0.013151294
-85.703247 163.00394 -31.210361 1.6004853 -100.95987 -121.968 -84.711357 -160.10243
-101.74376 28.440405 -95.298454 -43.65601 0.0025477703 -0.027000312 -91.809525 18.343639
-0.19800027 -0.0028074854 -92.557053 122.11709 -94.551941 120.60781 -32.610222 5.8397226
102657.01730823 -32.855213 4.5313792 -97.22541 -9.1253443 -88.368103 65.383949 -0.19822583 -0.0086651668
-84.578384 -177.04259 -31.239992 1.4907944 -101.79506 126.63485 -83.702583 -168.30148
-93.991554 84.452911 -90.542908 64.802261 0.0026196069 -0.016075395 -92.743576 177.83041
-0.19720688 -0.0034907989 -100.39509 -143.65457 -92.840782 38.60907 -32.574005 5.3782191
105384.63202622 -33.015591 5.5500646 -91.967155 166.07782 -93.050163 101.63735 -0.19773625 -0.014165822
-83.653618 -171.02744 -31.203241 1.4496239 -107.10844 -121.74674 -81.756279 -168.64975
-90.83139 70.401596 -102.41244 102.22424 0.0012327858 -0.023020215 -97.657715 -161.18355
-0.19735466 -0.00092595973 -93.220467 115.00767 -91.809196 91.251396 -32.713818 5.1699629
108184.71993937 -32.968445 4.8704548 -103.73908 -37.973156 -94.632973 106.4045 -0.1977728 -0.01390551
-87.342422 -170.46159 -31.184462 1.4588344 -100.70099 -43.197243 -82.104729 -174.80109
-94.413628 151.13989 -101.71755 29.881594 0.0047923988 -0.022586444 -94.188141 69.812248
-0.19812576 -0.0057365214 -99.235901 -153.83043 -97.639259 111.25224 -32.683804 4.9403458
111059.20667302 -33.008156 5.3406835 -106.32832 -176.74397 -87.34111 111.72472 -0.19804056 -0.019587347
-87.044212 -164.90288 -31.193516 1.2996831 -98.215584 -170.72626 -81.934525 -174.01411
-88.036934 79.664223 -92.629173 113.77216 0.0022642303 -0.0039676637 -90.473366 62.411381
-0.19791977 -0.0028406538 -114.58973 75.575661 -87.207222 102.82289 -32.660549 5.5678711
114010.0690167 -32.975559 5.0266027 -101.87617 159.68469 -90.866798 48.626884 -0.19784962 -0.013705754
-85.726273 158.70683 -31.202791 1.3926222 -92.339386 134.79637 -82.586502 177.29744
-88.655334 93.280823 -98.023293 -19.176987 0.0018609652 -0.019067867 -106.13593 123.22498
-0.19820525 -0.00258373 -99.485016 -94.472054 -95.379265 67.120918 -32.615631 5.5702057
117039.3362836 -32.968487 4.8334074 -96.031502 79.149521 -92.48436 144.64861 -0.19837239 -0.013789977
-86.32325 -169.25919 -31.227123 1.3806363 -101.23383 -160.1517 -85.817284 -167.15819
-100.1475 54.071297 -87.734673 124.31384 0.00058454869 -0.020954052 -99.226135 78.894379
-0.19695956 -0.0026648352 -95.985214 91.960487 -93.05761 131.97632 -32.670898 4.7313013
120149.09170609 -32.945873 5.0895367 -99.715393 29.780039 -94.988228 142.34769 -0.1977998 -0.014286499
-84.147629 -176.5191 -31.209904 1.4218956 -97.219482 -108.71098 -82.961868 -174.41373
-86.731712 82.23307 -97.610916 126.80044 0.0017863788 -0.01804075 -97.788635 5.6743102
-0.19755803 -5.406791e-005 -98.052864 66.283943 -95.788307 135.63959 -32.680977 5.0357995
123341.4738684 -33.013054 4.7472277 -91.817558 64.708458 -94.929298 80.392952 -0.19746076 -0.0162053
-82.575523 -171.54564 -31.182344 1.1740861 -98.115936 72.376549 -84.910713 -176.0584
-104.22479 43.448536 -98.177391 149.5213 0.00074854749 -0.027396055 -88.751694 99.144867
-0.19744946 -0.00056267896 -93.430679 123.54759 -94.174316 83.07132 -32.656242 5.2418799
126618.67817731 -32.988224 4.2315989 -105.86905 125.41612 -99.387199 105.16306 -0.19758101 -0.015870785
-83.105713 -157.73695 -31.215685 1.2434368 -96.188484 53.564877 -83.623352 -166.42239
-96.717659 18.484051 -96.821983 -143.54375 0.0016502633 -0.027022494 -93.566292 176.61298
-0.19706707 -0.0023497588 -100.17039 67.272598 -92.292046 109.27738 -32.673672 4.731863
129982.95837193 -32.96619 4.98563 -95.355576 -40.907143 -93.109322 113.1643 -0.19727235 -0.012901212
-83.671936 -165.10683 -31.205355 1.4271538 -99.117905 107.9556 -82.608948 -173.03355
-91.972717 120.81728 -88.864998 -97.958755 0.0011401995 -0.031244904 -88.754562 135.66026
-0.19758716 -0.0013586703 -100.47221 87.792351 -91.491524 110.44094 -32.72028 4.7907319
133436.62807362 -32.978588 5.1670837 -110.0052 -23.148916 -95.800964 107.15166 -0.19771978 -0.015661374
-83.456131 -173.72476 -31.226618 1.3694394 -104.86066 -139.49667 -82.075394 -171.35652
-97.499847 -23.450165 -91.080238 174.41644 0.0017139688 -0.01918087 -98.065041 -169.62677
-0.19740865 -0.0046106004 -96.914848 -156.63304 -94.496925 56.406708 -32.730209 4.8323021
136982.06237706 -33.013176 5.6003284 -95.153206 103.10013 -94.084282 90.860542 -0.19752702 -0.015007784
-81.669815 -165.99144 -31.22567 1.2036095 -95.23526 -58.460506 -82.97364 -171.89558
-86.60807 62.828621 -93.846947 22.034403 0.0015571795 -0.028231781 -95.47699 128.19537
-0.19740865 -0.0043603498 -92.417076 117.9483 -89.398964 66.391846 -32.673111 5.0171475
140621.69948359 -32.924149 4.5261045 -97.527771 36.626022 -101.53835 144.9491 -0.19728915 -0.016568044
-82.388252 -173.57492 -31.231789 1.3775513 -97.574249 178.98732 -84.033958 -176.82843
-95.376175 31.041956 -99.962631 -22.575525 0.0018942894 -0.022644281 -92.66716 78.965034
-0.19645908 -0.0046935142 -98.506035 150.10674 -94.999496 33.15377 -32.690311 4.5151124
144358.04237799 -32.89854 4.1401787 -106.26635 -27.010593 -92.808113 91.812851 -0.19737175 -0.016884813
-83.880241 -168.34853 -31.199249 1.2613568 -98.580017 -158.56473 -82.697311 171.67009
-86.977791 106.21846 -97.764877 -4.7793655 0.00046341011 -0.020962145 -97.169228 115.23534
-0.19590254 -0.0050142189 -96.486755 -60.755169 -95.01757 77.511055 -32.727997 4.5455532
148193.66054979 -33.03207 4.3328118 -98.71154 34.08276 -92.278831 100.40759 -0.19688845 -0.011008119
-84.356125 -172.03702 -31.254049 1.2477589 -94.38414 171.00294 -83.040199 -176.60008
-89.754028 90.506981 -95.199074 13.996044 0.0017058457 -0.022088852 -86.138824 106.5461
-0.19751871 -0.010178722 -92.24929 -136.68314 -94.890877 80.412697 -32.70903 4.5002799
152131.1917603 -32.940228 4.5171528 -105.37702 137.66418 -95.485596 30.100853 -0.1973976 -0.019035103
-87.584023 -154.71916 -31.203579 1.142208 -96.50029 142.55875 -82.881317 173.88844
-94.985901 73.101257 -92.525047 147.98346 0.0022077693 -0.019329946 -86.386307 90.570305
-0.19644795 -0.0062654857 -101.07583 -124.97516 -95.011215 67.674255 -32.726845 4.7579808
156173.34385659 -32.973598 4.6434994 -101.17598 153.33087 -102.68954 94.029953 -0.19732091 -0.017162124
-84.782333 -162.06525 -31.244156 1.3082018 -102.29515 138.54204 -83.94046 173.58302
-91.368958 132.07063 -96.316574 -164.95383 0.0019523498 -0.024079792 -90.81646 104.82158
-0.19712795 -0.0050340425 -92.77813 138.09164 -91.853653 95.044365 -32.643768 4.9417582
160322.8966337 -32.94643 4.3597937 -94.838226 -172.93777 -98.136871 89.226768 -0.19793883 -0.020241257
-83.696365 -172.78166 -31.194315 1.1048125 -96.979424 -17.976542 -82.67881 -159.78426
-88.491226 114.49345 -94.833641 55.739445 0.0021024647 -0.024257414 -98.809341 44.18581
-0.19698808 -0.0084706116 -96.423119 -136.53766 -101.88346 128.53159 -32.709019 5.2250504
164582.70374631 -33.091625 4.4782815 -97.522339 122.13877 -92.959106 105.168 -0.1969981 -0.022151873
-83.140434 -166.29884 -31.218805 1.1775857 -109.74209 143.04764 -83.500381 -172.9198
-87.430084 109.37769 -94.313118 54.461632 0.0013665262 -0.025935883 -96.337845 44.711514
-0.19716293 -0.0034282776 -99.725761 -148.07483 -103.37495 99.644691 -32.73481 4.5231805
168955.6946712 -33.049809 4.6842408 -90.396797 53.093143 -88.308723 107.96621 -0.19641683 -0.018653287
-85.206253 -168.05919 -31.22415 1.1551378 -117.63661 147.24637 -81.96946 -179.65971
-94.371277 83.90551 -93.133461 177.59064 0.0019719712 -0.023322204 -95.602921 136.76509
-0.19667301 -0.006515177 -92.139633 65.41552 -92.950096 101.33798 -32.71574 4.801312
173444.87672185 -32.968658 4.471251 -95.333824 -1.9552858 -94.722542 152.62534 -0.19741519 -0.016948828
-85.33696 -174.24826 -31.237535 1.1628584 -98.856804 122.68891 -85.386192 -164.13721
-94.441666 103.8955 -101.8115 18.378185 0.0019375313 -0.018267266 -86.789215 99.825417
-0.19630551 -0.0055715074 -101.22211 120.77521 -93.402832 96.033157 -32.696766 4.1784811
178053.33711659 -33.018242 3.8322127 -99.354485 26.451056 -92.845787 105.69992 -0.1963713 -0.018141175
-84.659447 -161.55267 -31.210136 1.2432671 -111.45783 -152.07216 -84.181114 -170.94742
-88.837425 108.31539 -101.23484 43.282845 0.0017389168 -0.035040956 -89.443062 113.58216
-0.19599034 -0.0099533685 -98.654472 -45.692543 -90.847488 121.90966 -32.744755 4.0306005
182784.24510166 -33.070652 3.3878922 -95.16201 -153.03101 -86.948753 63.25848 -0.19716395 -0.020855024
-83.223251 -165.714 -31.232061 0.87250131 -110.55913 -18.263237 -82.848206 -175.26994
-89.640877 80.071815 -96.281174 -179.66473 0.00095040706 -0.026961271 -89.400414 112.43242
-0.1959172 -0.011771183 -94.223534 -127.42574 -88.365685 97.190018 -32.686264 3.8560274
187640.85413072 -32.995987 4.5102196 -98.28717 153.64606 -90.608376 92.176399 -0.1972158 -0.021743612
-84.539619 -153.12531 -31.224092 1.0956165 -103.73734 -131.74748 -81.604431 176.88034
-90.661812 114.5053 -101.28718 -25.180746 0.002658566 -0.027513728 -92.587967 101.95844
-0.19586276 -0.0085698366 -101.69588 92.754349 -90.447273 126.56004 -32.769585 4.3294077
192626.50410229 -33.041668 3.9644604 -91.333832 86.303856 -88.801231 77.245819 -0.19704172 -0.018692689
-82.744316 -166.33606 -31.239897 1.1131891 -99.389023 -17.355362 -82.36042 178.26595
-87.144073 100.75826 -93.873032 8.3836231 0.0029804204 -0.026638873 -89.643578 123.77772
-0.19600633 -0.0051299226 -96.129593 105.23985 -88.811218 72.740173 -32.663147 4.2076049
197744.62365652 -33.008213 4.2603445 -92.602783 97.000603 -89.741745 94.977325 -0.19585612 -0.016966293
-83.978653 -160.79979 -31.230883 0.95121706 -96.244278 -121.17585 -80.885887 -168.01257
-84.912933 81.58992 -95.149513 -5.0037804 -0.00044017954 -0.026493333 -89.967247 102.26082
-0.1958119 -0.0098119909 -93.435143 72.653313 -88.32975 103.77684 -32.706783 4.172884
202998.73253317 -33.009075 3.2169333 -105.57586 140.45027 -89.128487 84.54493 -0.19612142 -0.016604709
-83.607834 -167.55083 -31.22254 1.0230968 -99.332977 -155.14613 -82.924187 -169.77307
-89.467445 103.54529 -92.083656 37.107952 0.0020380509 -0.020322476 -88.889992 98.616493
-0.19546132 -0.010907139 -105.12405 -136.6743 -91.13044 71.851852 -32.798832 3.8879333
208392.44399206 -33.004768 4.0512962 -99.362251 138.02011 -86.581367 116.26315 -0.19606413 -0.018836498
-82.8871 -175.02429 -31.258884 1.2517947 -94.837395 42.274979 -84.719788 -164.60808
-93.755272 143.52393 -89.315887 163.16602 0.0012891274 -0.02931848 -94.779198 83.629944
-0.19587165 -0.01230231 -94.30632 -162.33948 -89.859207 114.51167 -32.744865 3.630188
213929.46729797 -33.005993 3.6544385 -94.421303 -138.13985 -88.462112 121.42117 -0.1962917 -0.021519218
-83.480026 -171.55925 -31.235405 0.66241413 -100.30482 72.760155 -81.420563 -166.21327
-93.294556 87.365067 -103.34466 118.78154 0.0013058431 -0.031206081 -87.724831 99.272469
-0.19564396 -0.01233398 -98.277802 179.43802 -89.158112 89.46209 -32.77232 4.4056811
219613.61027148 -33.022156 3.7926834 -101.81583 144.19351 -96.071991 118.64443 -0.19590849 -0.018054375
-82.570839 -176.40695 -31.23822 0.83352625 -103.98045 -166.89977 -81.271446 -156.54591
-88.409828 127.20026 -98.582672 55.79203 0.002409918 -0.024377361 -92.42009 90.624649
-0.19557621 -0.011571362 -97.447495 171.96855 -96.504181 96.289986 -32.700474 4.0747976
225448.78190762 -33.048649 3.8996475 -89.434776 87.827019 -87.283401 129.00533 -0.19632953 -0.016872881
-82.707924 -170.25665 -31.230947 0.93307298 -102.46926 159.11597 -80.809921 -167.83563
-93.412262 102.0295 -97.047943 54.507778 0.0018946974 -0.028656555 -89.988174 128.18503
-0.19526976 -0.004981936 -96.858421 72.984276 -89.870544 88.657738 -32.721581 3.8549435
231438.99506409 -33.04715 3.6467934 -91.359718 72.375679 -91.496452 96.559761 -0.19569525 -0.024694588
-85.125847 179.53432 -31.242558 0.84408307 -106.27595 -93.943008 -83.334358 -172.02061
-87.390388 74.620285 -95.629356 172.31421 0.0018935823 -0.027582875 -87.581543 108.51826
-0.19574195 -0.011528231 -89.605301 93.419281 -92.852211 110.03046 -32.697464 3.8681679
237588.36922094 -32.999683 3.5159266 -101.86444 56.547989 -85.67498 91.378235 -0.19574504 -0.024369422
-83.748856 -174.44644 -31.224304 0.78970021 -98.183441 72.478584 -81.862946 -158.9301
-91.093658 121.7233 -96.327042 83.433212 0.0018197073 -0.035499755 -88.665581 136.91559
-0.19547407 -0.0095125455 -98.684532 -145.13121 -84.877243 88.554085 -32.749241 3.9441185
243901.13331348 -33.030788 3.7264807 -88.97641 111.3085 -86.843468 90.648766 -0.19610563 -0.024801569
-82.902222 -165.53404 -31.249735 0.92804438 -100.65632 120.66211 -82.209633 178.1266
-88.809074 108.15234 -96.024254 29.545313 0.0023829343 -0.03638817 -85.677826 82.104469
-0.19546166 -0.016277926 -89.024193 131.87192 -87.485893 86.577995 -32.681911 4.228581
250381.62864059 -32.988766 3.9053383 -96.671852 90.780487 -89.792389 96.782501 -0.19610076 -0.026237167
-82.261093 -177.83058 -31.222118 0.93603826 -97.276237 176.07138 -81.809738 -169.19751
-88.925377 104.11251 -102.63834 -68.624588 0.0018535281 -0.031655129 -85.693848 121.96793
-0.19568048 -0.012814354 -93.936073 106.55697 -87.983444 85.872864 -32.694324 3.7318702
257034.31185019 -33.030499 3.7973294 -92.769295 158.88847 -91.385887 108.9449 -0.19575095 -0.022995854
-82.413948 -168.0544 -31.254221 0.75907582 -96.097198 -124.50745 -83.381218 -174.79752
-83.170074 99.216042 -94.538559 -96.340355 0.0012893542 -0.032108989 -86.783882 103.26577
-0.19496633 -0.0074148206 -94.50695 139.89726 -86.466415 122.74303 -32.657627 3.6537538
263863.75800414 -33.049992 2.8924153 -100.50893 80.496376 -87.888847 124.65046 -0.19536945 -0.017852291
-82.713074 -165.8269 -31.211729 0.86060107 -105.12791 169.4729 -82.101997 -177.54532
-88.312126 110.38578 -101.26643 176.98616 0.0015002715 -0.028646033 -91.613068 107.91186
-0.19517809 -0.0091815963 -94.023132 107.30582 -84.506958 105.96359 -32.701298 3.3731294
270874.66372445 -32.956032 1.5188711 -93.857353 -56.808922 -84.943611 106.90331 -0.1950393 -0.011726208
-82.597824 -165.19913 -31.192181 0.59183079 -95.606728 143.85213 -83.52697 -172.13031
-83.765114 102.45887 -104.88426 64.200714 0.0026348385 -0.028593941 -85.121429 113.92014
-0.19423035 -0.0099416543 -100.71957 -12.710676 -87.502907 104.32046 -32.637409 2.4729331
278071.85042322 -32.933617 2.0584593 -94.188492 125.14534 -84.975739 90.020996 -0.19442233 -0.015634894
-85.150093 -178.41296 -31.250624 0.37346897 -97.019264 -109.99152 -82.362106 -174.5475
-86.917793 102.57713 -94.380363 -145.8056 0.0020292529 -0.028376032 -90.701836 118.87408
-0.19393443 -0.0086458838 -90.536636 57.476185 -86.248123 72.681831 -32.635262 2.5567534
285460.26761828 -33.059826 3.8374693 -106.60913 -0.078584187 -84.182922 103.09167 -0.19545263 -0.026174409
-82.101746 178.83745 -31.253538 0.51375872 -104.38521 128.72424 -81.891739 -179.18901
-83.985252 82.952736 -93.959503 -159.9781 0.00098200783 -0.043799881 -84.044029 90.709435
-0.19544201 -0.017823091 -104.8722 39.45401 -86.816017 96.771629 -32.683037 3.7325807
293044.99633701 -33.161148 6.2973647 -93.335442 84.719269 -84.841782 92.089935 -0.19773497 -0.052649051
-85.324371 -178.3965 -31.256916 1.0165014 -102.61794 -113.60339 -82.782349 -172.05209
-84.182625 91.617752 -115.02827 28.218716 0.0027600352 -0.039501552 -87.637558 111.50803
-0.19710876 -0.030401628 -96.269638 131.21613 -85.059654 85.101929 -32.85051 6.2755833
300831.25261059 -33.253632 9.2749596 -93.107811 43.802383 -82.876709 94.748116 -0.19903748 -0.065977573
-82.325661 -175.12735 -31.284746 1.3778065 -95.355156 -7.5758972 -82.441711 179.95862
-86.406845 96.384926 -101.74805 -166.45787 0.0024254969 -0.046886016 -86.860184 95.024193
-0.19864708 -0.039354067 -113.11931 -103.26859 -88.268242 96.506035 -32.989555 8.7086878
308824.39106101 -33.302013 9.000906 -102.90731 94.144661 -88.643997 118.93003 -0.19921948 -0.06420885
-81.17614 -171.62932 -31.310989 1.78993 -104.08148 -101.39735 -82.329659 -167.62025
-86.46788 112.15829 -102.84467 103.73264 0.0011320248 -0.051214058 -85.115059 83.729919
-0.19865173 -0.040588755 -91.531616 -177.85365 -89.710686 126.87474 -33.043091 8.2933922
317029.90858354 -33.420704 6.5864563 -94.06543 84.470894 -84.998604 88.24939 -0.19705769 -0.051887296
-82.398293 -178.67264 -31.280075 1.5280733 -100.32096 167.79666 -82.194923 -176.72871
-90.57476 107.0064 -94.591171 -10.9145 0.0006590035 -0.043990746 -83.309853 127.41178
-0.19810294 -0.035773151 -97.262665 167.99538 -83.940033 94.938583 -33.155689 6.077117
325453.44812686 -33.452412 4.9000907 -93.062538 101.78677 -87.446136 70.642853 -0.19645463 -0.042325694
-83.888954 -166.58331 -31.282822 1.39828 -103.43008 -96.774155 -82.215729 -173.88391
-89.070923 64.613022 -98.569252 132.58437 0.0020131858 -0.034352317 -83.843773 98.214752
-0.19650982 -0.029964138 -90.373741 97.662292 -85.606041 87.544991 -33.123337 3.8247917
334100.80257382 -33.548187 3.808403 -93.402283 53.741051 -83.732582 103.53832 -0.19613157 -0.037564848
-83.355347 176.30624 -31.265947 0.86864632 -95.381638 169.83232 -82.018654 -167.18118
-82.559433 95.078514 -95.554703 -133.87198 0.00067872071 -0.034451213 -85.420387 96.104012
-0.19493712 -0.036330625 -99.132217 173.04414 -82.146957 92.29406 -33.060505 2.7570419
342977.91872514 -33.354649 3.6472864 -96.309219 50.66959 -85.451057 85.635887 -0.1954605 -0.039234284
-81.666534 -162.90788 -31.247257 1.1744409 -99.042526 -41.653656 -83.308624 -163.57115
-83.296402 108.50441 -93.676048 79.374718 0.0023478225 -0.046579633 -80.740028 108.43233
-0.19516195 -0.032862756 -96.381165 157.49902 -86.206833 100.47043 -32.894634 2.3006074
352090.90138907 -33.315228 4.5892911 -90.787308 80.467583 -82.00473 106.36349 -0.19572835 -0.044742387
-84.298965 179.02934 -31.270851 1.0314115 -100.15562 -113.414 -81.266113 -167.72578
-83.066566 110.97826 -102.80299 -17.765703 0.0018503407 -0.050053436 -83.189644 86.889297
-0.19531746 -0.034603592 -95.336716 95.297646 -82.374847 102.77614 -32.945885 3.3134871
361446.01757968 -33.149689 4.2351599 -91.040176 95.237144 -82.753204 92.101646 -0.19464739 -0.031991672
-84.919518 -163.3139 -31.228077 0.70638973 -105.23328 -30.481537 -81.325348 -166.27539
-83.892754 89.444626 -93.918373 94.097206 0.0018162766 -0.042391296 -83.322685 103.31702
-0.19523843 -0.022441195 -99.280701 127.31072 -82.446693 98.934776 -32.845192 4.1213961
371049.70082668 -33.077049 4.594985 -94.359924 66.06311 -84.943329 97.784134 -0.19534381 -0.022219609
-81.51516 -169.05125 -31.250498 0.68285513 -94.077866 125.22105 -80.882706 -164.60654
-83.683685 80.175697 -100.1114 -161.0257 0.0014887645 -0.038898673 -84.060616 91.666061
-0.19554494 -0.012088117 -94.327438 91.723793 -87.055977 99.353867 -32.728161 4.2356706
380908.55559977 -32.96701 4.5098739 -97.861473 48.719318 -82.658371 101.11581 -0.19447981 -0.020541757
-83.431511 -164.61964 -31.256624 0.90963203 -115.25427 13.351379 -81.47197 -169.56326
-81.011398 94.505333 -97.090027 -129.05891 0.0020080162 -0.044356752 -81.514885 100.52932
-0.19532536 -0.0050866031 -100.64218 135.185 -83.641449 86.696442 -32.64925 3.9355874
