!Keysight Technologies,E5080A,MY55200740,A.12.60.03
!Date: Wednesday, July 22, 2020 12:06:28
!Correction: S11(Full 4 Port(1,2,3,4)) 
!S12(Full 4 Port(1,2,3,4)) 
!S13(Full 4 Port(1,2,3,4)) 
!S14(Full 4 Port(1,2,3,4)) 
!S21(Full 4 Port(1,2,3,4)) 
!S22(Full 4 Port(1,2,3,4)) 
!S23(Full 4 Port(1,2,3,4)) 
!S24(Full 4 Port(1,2,3,4)) 
!S31(Full 4 Port(1,2,3,4)) 
!S32(Full 4 Port(1,2,3,4)) 
!S33(Full 4 Port(1,2,3,4)) 
!S34(Full 4 Port(1,2,3,4)) 
!S41(Full 4 Port(1,2,3,4)) 
!S42(Full 4 Port(1,2,3,4)) 
!S43(Full 4 Port(1,2,3,4)) 
!S44(Full 4 Port(1,2,3,4)) 
!S4P File: Measurements: <S11,S12,S13,S14>,
!<S21,S22,S23,S24>,
!<S31,S32,S33,S34>,
!<S41,S42,S43,S44>:Log Frequency Sweep
# Hz S  dB   R 50
100000 -34.71756 7.3532605 -88.648308 49.128933 -103.16038 18.193237 -0.16019292 -0.013821363
-94.148575 -176.60622 -32.973396 1.9200388 -103.9917 157.57666 -91.588104 -147.62405
-95.444572 179.92072 -95.488655 41.036736 0.0013612401 -0.024282476 -94.492752 7.0539145
-0.16073425 -0.00011164256 -89.070366 128.38454 -99.389633 108.39253 -34.287102 7.2585573
102657.01730823 -34.691322 5.8097243 -92.053444 30.796957 -94.53331 76.45092 -0.16001053 -0.011388202
-90.793922 176.62265 -32.967571 1.7645043 -100.90535 20.341095 -90.207222 -159.54956
-88.830238 92.101196 -93.995201 165.59064 0.0018984006 -0.022144072 -96.910126 81.674911
-0.16077486 -0.002083471 -105.11584 -21.77187 -94.775291 130.87688 -34.297741 6.2892747
105384.63202622 -34.816574 6.906383 -93.998085 7.1845803 -88.619713 45.220387 -0.15969296 -0.014857328
-91.20314 -140.46672 -32.932449 1.903358 -102.61415 17.47949 -88.273247 -175.36906
-91.903572 102.29182 -94.617073 -41.142021 0.00072847842 -0.021216579 -97.956291 115.34699
-0.16010509 -0.002870484 -95.922234 -107.30857 -90.869034 30.435354 -34.45768 6.3313103
108184.71993937 -34.716122 6.1491766 -97.915771 133.20001 -91.599335 165.85881 -0.15978687 -0.013571384
-92.125679 177.09419 -32.960907 1.7379586 -100.83679 128.20943 -90.716667 -172.4375
-92.796486 122.08633 -92.853088 90.494652 0.0026732769 -0.011841731 -89.040054 51.160873
-0.16016199 -0.0070957961 -89.237518 -151.85138 -93.663582 155.15982 -34.4067 6.2521591
111059.20667302 -34.822857 6.6781149 -100.07986 -41.765804 -91.392784 90.164429 -0.16022237 -0.015730973
-90.891373 177.94737 -32.973362 1.7220922 -93.554405 -66.665787 -91.375877 -163.76587
-96.641281 87.282982 -97.700912 178.41656 0.0020759725 -0.011197926 -98.661232 157.30832
-0.16081546 -0.0011502667 -98.695854 166.43596 -88.900047 109.72527 -34.397274 6.9636788
114010.0690167 -34.752449 6.0060635 -102.17365 43.686985 -99.518234 141.59543 -0.16004105 -0.013302114
-95.588356 158.81651 -32.958988 1.520094 -104.60109 -111.93624 -90.277382 -163.44383
-97.213722 164.02318 -97.812859 -97.095589 0.0027417748 -0.016623355 -95.32917 -157.05801
-0.16097155 -0.0047063907 -92.996429 178.08736 -103.58996 8.634881 -34.368828 6.7969575
117039.3362836 -34.844383 5.9856982 -94.751747 150.68167 -97.525375 122.96073 -0.1598438 -0.014162054
-93.70665 161.8578 -32.964584 1.8126447 -93.2146 5.0862851 -87.690742 -169.63016
-103.47068 145.26761 -102.64928 -167.09869 0.0010915719 -0.014753938 -87.231972 75.662323
-0.16046686 -0.0019645649 -98.522095 -170.63846 -99.432297 142.12334 -34.363655 5.7560225
120149.09170609 -34.750076 6.3498535 -101.82802 157.31357 -95.716354 80.564491 -0.15956432 -0.014074984
-89.533096 -175.48979 -32.943707 1.8358607 -99.071831 -131.20764 -87.1493 164.28841
-96.350502 119.05857 -99.162346 -144.27849 0.00035587221 -0.023393411 -92.362968 84.524315
-0.1604674 -0.00029437948 -94.278511 155.3968 -90.996353 52.006855 -34.405285 6.0433774
123341.4738684 -34.881355 5.9080548 -108.62915 -109.9259 -92.753166 113.03266 -0.15930213 -0.016770894
-90.481964 173.05748 -32.953018 1.9840533 -99.891815 -133.60255 -86.605721 -171.05489
-91.220749 142.59546 -98.905205 -45.933411 0.00079584285 -0.022375111 -92.672966 -95.060112
-0.16077064 0.00021208385 -99.071114 -102.92677 -92.675941 135.17957 -34.396809 6.2862277
126618.67817731 -34.781101 5.4414959 -107.84983 75.958191 -111.49275 10.718054 -0.15986912 -0.013962317
-94.487869 -144.59874 -32.969254 1.6952889 -94.816277 -67.993004 -88.361046 -176.77708
-93.158302 132.59123 -98.939613 -46.66473 0.0006592907 -0.024229331 -90.799385 101.21459
-0.15992317 -0.00033298493 -98.861412 137.91795 -101.27533 134.75473 -34.435711 6.0578403
129982.95837193 -34.743877 6.3348784 -94.686638 -10.849019 -92.516022 112.5965 -0.16006155 -0.014967438
-96.910118 158.81477 -32.98233 1.81626 -97.58242 -81.014595 -90.59967 -168.21649
-90.916405 93.920441 -99.295029 -90.928879 0.0015855046 -0.017225884 -93.204956 127.31738
-0.16023378 6.6243578e-005 -126.17047 -25.523357 -93.728195 97.263268 -34.529236 5.7253428
133436.62807362 -34.810341 6.2961855 -97.988457 121.47704 -92.053978 61.145874 -0.15896636 -0.014007392
-92.190636 179.73003 -32.984707 1.3769711 -94.530891 23.356344 -86.100662 165.92223
-91.974838 107.47729 -98.2733 113.78469 0.00051206915 -0.020892898 -98.239647 95.703972
-0.16070366 -0.0025224769 -94.608292 168.97319 -91.947121 75.669113 -34.441658 6.0563889
136982.06237706 -34.76421 6.9601936 -93.037552 -16.43339 -95.897888 142.50085 -0.15949351 -0.017828906
-89.42791 -167.87587 -32.979721 1.3530391 -98.129326 -131.79701 -92.399117 179.81573
-115.5798 166.34955 -95.4533 60.145348 0.0012733933 -0.026547197 -93.884216 34.535126
-0.15972908 -0.0046238909 -106.83512 167.3501 -99.810173 -96.615631 -34.404758 6.116787
140621.69948359 -34.72728 5.6686411 -99.236771 1.2386271 -95.84481 133.40585 -0.15856719 -0.014712795
-90.350784 -158.05629 -32.974339 1.8721386 -102.75665 -170.45203 -89.441551 177.1861
-95.184265 133.36298 -92.933945 -121.59197 0.0023601372 -0.022885347 -91.786163 61.091473
-0.15976863 -0.0048614922 -104.96116 -157.63524 -93.10907 130.989 -34.367554 5.5870099
144358.04237799 -34.744255 5.557364 -112.13893 77.580032 -90.362801 97.952324 -0.15924823 -0.019150689
-89.656548 -157.63443 -32.967201 1.7254958 -108.35754 -11.16765 -87.613411 -136.70441
-88.966812 75.653152 -104.1515 -128.15553 0.00057712646 -0.017523507 -91.066132 57.057758
-0.15975702 -0.0047971178 -99.122353 162.50005 -88.374649 127.63219 -34.493668 5.6119447
148193.66054979 -34.818542 5.6057825 -93.903557 58.409264 -92.89624 52.796787 -0.15901867 -0.01099435
-96.548058 -162.87064 -32.970695 1.3534774 -101.50188 -28.928228 -89.656517 -177.2951
-91.70285 55.877941 -94.303543 -177.25131 0.0013197837 -0.023570707 -102.00249 150.19615
-0.15995687 -0.0056003076 -94.797211 103.91453 -99.958138 120.78016 -34.448982 5.6040215
152131.1917603 -34.792252 5.4452419 -98.026848 96.472977 -94.751762 127.49155 -0.15947554 -0.018478695
-94.355362 -117.96723 -32.954353 1.5495882 -110.96993 -1.1407783 -92.563072 159.4417
-100.17548 149.52986 -96.643509 60.85957 0.0013656364 -0.027974509 -86.192078 118.80385
-0.15993893 -0.0066572139 -93.192146 119.21138 -90.980019 122.69656 -34.456577 5.7750087
156173.34385659 -34.786766 5.9468703 -99.587746 -163.03577 -93.968391 59.320824 -0.15916507 -0.016104722
-91.856308 -166.11826 -32.994213 1.4710193 -95.62011 97.016251 -88.596649 -170.21329
-95.573944 61.337894 -103.70651 57.835876 0.0021141306 -0.028268056 -95.081665 87.001205
-0.15990153 -0.0034161068 -100.85131 178.97289 -94.01622 123.36758 -34.37751 6.2113395
160322.8966337 -34.770168 5.9046521 -94.80162 120.11258 -99.496727 89.662163 -0.15968385 -0.018017892
-92.986031 -147.93015 -32.958698 1.595752 -99.589249 -157.72154 -87.275543 -169.3351
-91.145096 102.51091 -98.321442 76.238113 0.0021972295 -0.015218982 -86.734688 119.20041
-0.16030021 -0.0036930209 -97.430695 157.36707 -98.861313 91.668854 -34.453579 6.6699257
164582.70374631 -34.892555 5.3495674 -97.862663 93.68792 -88.501579 86.060211 -0.1589049 -0.020603802
-89.157829 -175.15683 -32.948353 1.4111686 -100.89542 153.81024 -87.614479 164.16972
-88.345039 116.28092 -102.40691 24.155704 0.0011986436 -0.023387412 -95.28833 105.16658
-0.15970902 -0.006204546 -93.778992 135.12596 -89.130295 120.64568 -34.47155 5.6417203
168955.6946712 -34.917412 5.8327394 -94.561768 -90.637772 -92.166153 93.11335 -0.15831041 -0.01502189
-93.140968 -171.131 -32.975739 1.7965705 -99.81916 129.05251 -93.557922 158.13585
-89.057068 113.81451 -93.492035 160.06065 0.00093333871 -0.018616436 -92.859398 71.476067
-0.16007285 -0.0077130022 -101.55724 -168.32899 -92.874199 69.713425 -34.448944 5.8763218
173444.87672185 -34.789516 5.7348967 -100.21681 -138.7766 -94.502853 141.20914 -0.15930371 -0.016954258
-107.46117 115.76792 -32.977894 1.4515871 -98.584282 -103.40258 -88.709236 147.00418
-91.488312 57.113167 -96.670189 -129.69885 0.0014467225 -0.015915055 -87.182838 110.12418
-0.15927033 -0.0027201127 -96.071732 160.95427 -91.580894 120.89226 -34.443817 5.202826
178053.33711659 -34.855919 5.0211468 -96.588768 112.04806 -90.838966 83.779152 -0.15862039 -0.016204631
-94.154564 -151.82846 -32.96629 1.3215793 -99.203568 89.728394 -90.355057 178.22287
-88.028763 145.83852 -92.946625 -167.44344 0.0012359897 -0.024578318 -85.380074 116.54333
-0.15943216 -0.0073580006 -96.821823 -179.59702 -87.217163 71.908401 -34.514164 5.2290916
182784.24510166 -34.896774 4.5356593 -99.503319 116.96078 -89.626953 63.581581 -0.15869835 -0.017904019
-90.836807 -164.51204 -32.963985 1.2477794 -97.030739 151.71516 -88.250679 161.89665
-93.072403 70.892693 -96.342598 130.57762 0.00010882233 -0.029321183 -92.321564 104.69006
-0.15889274 -0.0072932038 -94.07238 125.07227 -86.293579 46.258087 -34.398403 4.7203436
187640.85413072 -34.840511 5.4952292 -91.951134 59.83849 -91.122177 106.66151 -0.15972295 -0.016461195
-94.36805 128.65671 -32.976494 1.2337736 -104.02876 -142.52463 -92.259552 171.78262
-87.473434 118.27171 -92.075386 59.961342 0.0026276789 -0.029712563 -96.260162 111.68193
-0.15935244 -0.011359236 -89.389748 135.01717 -93.89183 104.97665 -34.591805 5.68504
192626.50410229 -34.866013 5.0104499 -93.547417 63.42345 -87.469894 80.900856 -0.15847167 -0.016729768
-89.010742 -172.64189 -32.985672 1.2225846 -111.15862 21.431078 -91.617561 161.82832
-93.202324 124.63351 -97.253006 49.652821 0.0032668589 -0.022401184 -93.787224 70.277168
-0.15896662 -0.0018235953 -100.78925 72.849922 -91.647133 57.883217 -34.359173 5.2921352
197744.62365652 -34.847431 5.0207162 -101.92866 -11.624396 -105.07103 129.71848 -0.15803781 -0.015614402
-87.518059 175.19366 -32.946972 1.3950372 -95.695717 -79.693474 -89.493195 -161.2538
-85.978058 100.23098 -94.928169 -160.92569 0.0018777807 -0.02353985 -94.699226 75.560486
-0.15910245 -0.012335112 -107.16357 -68.105675 -90.522797 92.612274 -34.460552 5.1145868
202998.73253317 -34.861904 4.2646661 -92.525826 119.49097 -91.214355 123.89999 -0.15819222 -0.017185863
-90.366989 158.02011 -32.956009 1.433674 -93.921509 63.440552 -86.527245 170.75655
-87.560532 126.51903 -90.912354 49.833839 0.0021841533 -0.022796545 -86.656296 103.43159
-0.1590277 -0.0083682975 -99.812195 131.26262 -89.973778 106.42315 -34.540901 4.9268603
208392.44399206 -34.845356 5.2873778 -98.301559 177.27141 -89.045441 103.80083 -0.15836664 -0.019117497
-94.902107 161.14212 -32.962395 1.4686989 -104.44016 -161.25604 -89.22625 179.53946
-89.474358 92.960739 -102.33141 106.20162 0.00062203035 -0.037138764 -91.097794 77.119484
-0.15890008 -0.0090862187 -97.574455 -172.24013 -87.733208 99.640839 -34.492058 4.5133281
213929.46729797 -34.821968 4.6294131 -96.645103 120.20734 -92.772942 126.02086 -0.15812828 -0.020036954
-93.147125 -178.1423 -32.965721 0.89253891 -96.682701 160.18149 -87.339684 177.33934
-86.402039 94.380112 -97.449677 -37.218548 0.0022250237 -0.029942153 -89.707893 88.624214
-0.15843496 -0.011741647 -94.940514 92.084541 -89.062149 107.95662 -34.538216 5.5194259
219613.61027148 -34.849422 4.9072762 -97.593597 95.584541 -92.859261 86.069061 -0.15773824 -0.017931212
-91.484924 -151.50705 -32.991646 1.1530814 -107.10953 85.986526 -89.639633 168.74731
-88.64827 83.043457 -92.714401 -82.858437 0.0029919017 -0.027958982 -84.721046 152.25949
-0.15901715 -0.0083287777 -105.81239 122.03362 -89.493553 118.54182 -34.434532 5.1042624
225448.78190762 -34.893169 4.7436547 -96.172684 -68.006432 -92.660194 83.497696 -0.15845208 -0.018720975
-90.614624 150.80353 -32.962044 1.5783591 -98.021111 166.65929 -92.678581 176.24773
-86.87529 97.85614 -101.96008 101.39831 0.0020941447 -0.023648888 -86.978905 88.710762
-0.15835758 -0.0068256217 -102.48512 139.99997 -90.759712 113.73676 -34.485516 4.6383252
231438.99506409 -34.903194 4.6877952 -110.72534 163.62334 -93.593422 74.664238 -0.15769358 -0.024642788
-89.339355 -175.76501 -33.028564 0.9551357 -95.491493 -163.17227 -88.045303 164.75157
-89.102608 89.830292 -93.947311 139.20616 0.0012135509 -0.029312998 -90.676788 88.374107
-0.15861163 -0.010452898 -99.481346 135.53896 -93.562241 110.66183 -34.469189 4.8042412
237588.36922094 -34.816448 4.4593205 -93.11927 152.97879 -85.250084 103.19881 -0.15781538 -0.024498964
-88.420105 150.0453 -32.986427 0.98254812 -108.0201 -155.52885 -91.421783 161.77649
-84.485611 118.21764 -91.150253 152.03935 0.0030281725 -0.028535143 -82.500282 92.772743
-0.1582499 -0.011533887 -97.262291 117.78302 -85.528076 99.332191 -34.499443 4.8720579
243901.13331348 -34.857853 4.7433081 -101.33698 -118.54906 -88.862701 94.453873 -0.15836269 -0.023738813
-92.618805 175.19547 -32.997166 0.76162076 -103.89739 -126.17207 -90.873833 -178.16054
-86.371643 121.07363 -91.97081 170.84915 0.001425844 -0.041078784 -85.863747 111.55042
-0.15820658 -0.014246384 -91.643661 171.36235 -86.3862 103.3841 -34.455048 5.2984042
250381.62864059 -34.820187 4.8543954 -96.77813 118.28712 -85.540863 82.196365 -0.15852794 -0.019912405
-88.506866 -156.70526 -33.011845 1.2940503 -98.052757 66.532188 -88.245049 166.11563
-84.236809 89.198067 -108.528 -130.85161 0.0031293409 -0.024724191 -89.442513 99.399773
-0.15883832 -0.01140957 -99.832733 128.19164 -86.448082 94.811813 -34.490147 4.9923024
257034.31185019 -34.862537 4.9703627 -118.49916 72.007675 -86.355446 84.058441 -0.15808368 -0.025417024
-88.650337 172.24483 -33.022236 0.9343189 -110.2369 -32.98151 -90.393311 -179.33064
-83.55468 119.06875 -95.98156 90.121956 0.0015277787 -0.035594571 -89.207558 110.52644
-0.15803912 -0.0069736564 -102.56781 -114.57108 -86.043533 86.621834 -34.397156 4.2479949
263863.75800414 -34.912739 3.406204 -95.320831 87.614792 -90.027267 94.9161 -0.15756261 -0.019457566
-92.717003 152.23924 -32.975624 1.0227154 -90.475739 -124.83496 -87.310059 -176.21951
-85.599419 77.813087 -96.643166 116.23914 0.0014523772 -0.037381195 -89.698151 99.207512
-0.15851781 -0.0090753436 -91.140564 138.92816 -88.944099 84.60553 -34.490471 4.0712938
270874.66372445 -34.746498 1.5514587 -92.794075 66.055405 -86.263107 111.28855 -0.15660498 -0.014369402
-93.416496 176.50157 -32.988205 0.70940495 -97.310547 40.856445 -86.644913 -177.63647
-85.30014 99.066216 -97.493065 172.71707 0.002106074 -0.031129962 -90.644432 118.90252
-0.15707421 -0.01246029 -102.49464 91.973831 -89.992302 122.01032 -34.371933 2.891799
278071.85042322 -34.738419 2.5374887 -89.134857 88.575081 -90.376633 113.52077 -0.1561431 -0.017057978
-89.055344 171.72473 -32.994965 0.51267821 -96.213409 42.528767 -85.366974 160.41982
-87.42524 105.79671 -101.61313 -156.58351 0.00048817933 -0.034082506 -84.747742 126.41792
-0.15718082 -0.0082651721 -92.09137 81.724251 -84.776062 109.53941 -34.333 2.9487581
285460.26761828 -34.87719 5.2154365 -97.498055 13.359719 -86.548424 75.687805 -0.15702662 -0.025774652
-91.066467 156.60231 -33.024654 0.67895585 -108.20845 60.835724 -93.70652 150.51166
-83.580635 94.246002 -93.121613 -22.01738 0.0011224685 -0.040743001 -85.238213 101.10235
-0.158205 -0.013849751 -95.510948 159.77209 -86.640289 90.929039 -34.36953 4.4904394
293044.99633701 -35.049412 8.1989498 -93.700264 28.129129 -84.940704 105.49567 -0.15971188 -0.051509723
-90.594505 176.65102 -32.980808 1.4492297 -100.78405 67.493629 -88.640945 -173.87959
-83.739182 94.624557 -98.74614 -85.087021 0.0016795768 -0.041949265 -85.398636 110.1486
-0.16018902 -0.027202167 -104.41226 140.93112 -84.956245 82.882339 -34.608883 7.7454114
300831.25261059 -35.136967 11.561702 -96.867104 70.236908 -86.91433 101.297 -0.16072094 -0.066925883
-93.01062 -138.89114 -33.05825 1.8082975 -95.22599 -85.151009 -87.812782 155.62654
-86.823486 107.32711 -99.302368 122.64949 0.002721942 -0.041426472 -83.182884 126.62179
-0.16166079 -0.041215029 -100.66925 117.14281 -86.014732 97.753502 -34.765762 10.756149
308824.39106101 -35.177319 11.199438 -96.04705 70.401802 -85.237885 90.746078 -0.16103257 -0.064217433
-91.262215 171.08774 -33.078114 1.975781 -101.93433 171.66142 -90.839775 174.21669
-87.628082 99.02195 -91.616653 33.46476 0.0016856387 -0.049287274 -82.771675 99.569992
-0.16154534 -0.040729806 -98.457451 150.34576 -88.124199 80.477402 -34.838924 10.433208
317029.90858354 -35.307068 8.5321503 -95.054863 111.54905 -85.173691 84.341461 -0.15902427 -0.055262323
-88.273666 166.37976 -33.035503 1.9711199 -101.52238 100.59141 -90.462784 178.56828
-83.580772 89.741226 -103.86504 66.36776 0.00017096323 -0.040671442 -84.582314 99.306564
-0.16068368 -0.033912938 -93.305321 104.80422 -83.661949 101.72959 -34.978424 7.3624172
325453.44812686 -35.321793 6.6366014 -95.611412 47.999184 -85.004189 105.81533 -0.15848294 -0.041587766
-93.01252 137.83586 -33.017414 1.5996264 -98.208809 132.24744 -84.530296 175.98259
-83.128395 100.59976 -93.220276 -165.51091 0.002132416 -0.036312625 -83.591354 97.2901
-0.15930843 -0.026420331 -93.618813 99.200974 -87.822174 80.376839 -35.004147 4.9776478
334100.80257382 -35.53196 4.9273725 -95.233101 100.32443 -85.791702 110.47593 -0.15838259 -0.043041211
-88.727654 -175.5594 -33.004841 1.5068984 -107.93983 -66.216331 -90.865906 166.6273
-84.342461 109.40968 -92.826607 83.767891 0.0004441294 -0.038962524 -87.797012 85.793495
-0.15785512 -0.035195563 -98.288857 108.41203 -82.67865 119.58488 -34.896023 3.1714594
342977.91872514 -35.288692 4.271987 -89.535034 92.755493 -85.456825 106.03673 -0.15758318 -0.039651349
-88.54567 -150.49031 -33.024296 1.481555 -105.73194 -73.730148 -85.620422 177.15521
-83.163612 93.467361 -101.38235 13.634916 0.0018617997 -0.042153686 -84.859192 96.914169
-0.15811235 -0.035859972 -99.233032 -179.08047 -84.090569 98.479088 -34.737511 2.9344206
352090.90138907 -35.166203 5.758245 -90.751495 88.566689 -83.458199 97.832214 -0.15723293 -0.041543327
-88.487045 156.21167 -33.028748 1.3325398 -102.55167 95.285065 -87.470093 176.19121
-84.233749 105.61627 -93.697685 21.151318 0.0026768136 -0.045068517 -84.918602 96.731491
-0.1577635 -0.034093935 -88.371399 91.461578 -83.034599 99.756241 -34.737526 4.4268527
361446.01757968 -34.98595 5.3332253 -91.867516 91.5159 -83.229385 78.984451 -0.15715212 -0.032198858
-91.960129 -171.80939 -32.966728 1.0679469 -100.37956 -146.11623 -86.528282 161.70792
-84.121956 94.914078 -94.62059 -102.77391 0.0031093913 -0.034341455 -85.471146 97.513474
-0.15817873 -0.022816222 -92.893433 91.960762 -83.331673 83.359222 -34.658504 5.0846834
371049.70082668 -34.871387 5.5763712 -85.962128 95.239159 -84.799187 113.6734 -0.15737157 -0.022987166
-86.48011 165.58203 -33.016182 1.0854881 -104.91064 -146.74641 -87.874664 169.60158
-85.788132 99.684883 -94.53186 -84.617729 0.0012868645 -0.038688011 -82.840759 97.251991
-0.15826361 -0.011364825 -89.685783 88.047272 -85.971046 105.50781 -34.488647 5.1061196
380908.55559977 -34.740273 5.4004784 -93.976402 162.46432 -88.061966 91.475586 -0.15707639 -0.022441348
-89.218246 -179.95425 -33.004013 1.0796968 -101.69595 30.979321 -92.779121 -174.70624
-83.085938 94.723305 -89.362694 82.333252 0.0016449436 -0.046763442 -82.189308 89.610878
-0.15778129 -0.0083677638 -94.054283 -178.91438 -85.021057 99.255829 -34.43211 4.9830241
391029.36185059 -34.771847 4.6934891 -103.26356 100.24786 -85.413101 104.09768 -0.1567868 -0.02524079
